T1178 7837:882 SEGGER J-Link V5.02c Log File (0000ms, 38424ms total)
T1178 7837:882 DLL Compiled: Sep 10 2015 17:39:31 (0000ms, 38424ms total)
T1178 7837:882 Logging started @ 2020-12-11 14:49 (0000ms, 38424ms total)
T1178 7837:882 JLINK_SetWarnOutHandler(...) (0000ms, 38424ms total)
T1178 7837:882 JLINK_OpenEx(...)
Firmware: J-Link ARM V8 compiled Jan 31 2018 18:34:52
Hardware: V8.00
S/N: 20080643
Feature(s): RDI,FlashDL,FlashBP,JFlash,GDBFullDevice "RTL8762A" selected.  returns O.K. (0273ms, 38697ms total)
T1178 7838:155 JLINK_GetEmuCaps()  returns 0xF9FF7BFF (0000ms, 38697ms total)
T1178 7838:155 JLINK_TIF_GetAvailable(...) (0002ms, 38699ms total)
T1178 7838:158 JLINK_SetErrorOutHandler(...) (0000ms, 38699ms total)
T1178 7838:158 JLINK_ExecCommand("ProjectFile = "D:\BleMesh_RTL\SKYIOT_Rtl8762_MESH_nightlight\board\evb\nightlight\JLinkSettings.ini"", ...)Device "RTL8762A" selected.  returns 0x00 (0003ms, 38702ms total)
T1178 7838:161 JLINK_ExecCommand("Device = ARMCM4_FP", ...)Device "RTL8762A" selected.  returns 0x00 (0001ms, 38703ms total)
T1178 7838:162 JLINK_ExecCommand("DisableConnectionTimeout", ...)  returns 0x01 (0000ms, 38703ms total)
T1178 7838:162 JLINK_GetHardwareVersion()  returns 0x13880 (0000ms, 38703ms total)
T1178 7838:162 JLINK_GetDLLVersion()  returns 50203 (0000ms, 38703ms total)
T1178 7838:162 JLINK_GetFirmwareString(...) (0000ms, 38703ms total)
T1178 7838:162 JLINK_GetDLLVersion()  returns 50203 (0000ms, 38703ms total)
T1178 7838:162 JLINK_GetCompileDateTime() (0000ms, 38703ms total)
T1178 7838:162 JLINK_GetFirmwareString(...) (0000ms, 38703ms total)
T1178 7838:162 JLINK_GetHardwareVersion()  returns 0x13880 (0000ms, 38703ms total)
T1178 7838:163 JLINK_TIF_Select(JLINKARM_TIF_SWD)  returns 0x00 (0004ms, 38708ms total)
T1178 7838:167 JLINK_SetSpeed(1000) (0001ms, 38709ms total)
T1178 7838:168 JLINK_GetId() >0x108 TIF>Found SWD-DP with ID 0x2BA01477 >0x0D TIF> >0x21 TIF> >0x0D TIF> >0x28 TIF> >0x0D TIF> >0x28 TIF> >0x0D TIF> >0x21 TIF> >0x0D TIF> >0x28 TIF> >0x0D TIF> >0x21 TIF> >0x0D TIF> >0x21 TIF> >0x0D TIF> >0x21 TIF> >0x0D TIF> >0x28 TIF> >0x0D TIF> >0x21 TIF> >0x0D TIF> >0x28 TIF> >0x0D TIF> >0x28 TIF> >0x0D TIF> >0x21 TIF> >0x0D TIF> >0x28 TIF> >0x0D TIF> >0x28 TIF> >0x0D TIF> >0x28 TIF> >0x0D TIF> >0x21 TIF> >0x0D TIF> >0x21 TIF> >0x0D TIF> >0x28 TIF> >0x0D TIF>
 >0x21 TIF> >0x0D TIF> >0x21 TIF>Found Cortex-M4 r0p1, Little endian. >0x0D TIF> >0x28 TIF>Identified core does not match configuration. (Found: Cortex-M4, Configured: Cortex-M0) -- CPU_ReadMem(4 bytes @ 0xE000EDF0) -- CPU_ReadMem(4 bytes @ 0xE0002000)FPUnit: 6 code (BP) slots and 2 literal slots -- CPU_ReadMem(4 bytes @ 0xE000EDFC) -- CPU_ReadMem(4 bytes @ 0xE0001000) -- CPU_WriteMem(4 bytes @ 0xE0001000) -- CPU_ReadMem(4 bytes @ 0xE000ED88) -- CPU_WriteMem(4 bytes @ 0xE000ED88)
 -- CPU_ReadMem(4 bytes @ 0xE000ED88) -- CPU_WriteMem(4 bytes @ 0xE000ED88)CoreSight components:ROMTbl 0 @ E00FF000 -- CPU_ReadMem(16 bytes @ 0xE00FF000) -- CPU_ReadMem(16 bytes @ 0xE000EFF0) -- CPU_ReadMem(16 bytes @ 0xE000EFE0)ROMTbl 0 [0]: FFF0F000, CID: B105E00D, PID: 000BB00C SCS -- CPU_ReadMem(16 bytes @ 0xE0001FF0) -- CPU_ReadMem(16 bytes @ 0xE0001FE0)ROMTbl 0 [1]: FFF02000, CID: B105E00D, PID: 003BB002 DWT -- CPU_ReadMem(16 bytes @ 0xE0002FF0) -- CPU_ReadMem(16 bytes @ 0xE0002FE0)
ROMTbl 0 [2]: FFF03000, CID: B105E00D, PID: 002BB003 FPB -- CPU_ReadMem(16 bytes @ 0xE0000FF0) -- CPU_ReadMem(16 bytes @ 0xE0000FE0)ROMTbl 0 [3]: FFF01000, CID: B105E00D, PID: 003BB001 ITM -- CPU_ReadMem(16 bytes @ 0xE00FF010) -- CPU_ReadMem(16 bytes @ 0xE0040FF0) -- CPU_ReadMem(16 bytes @ 0xE0040FE0)ROMTbl 0 [4]: FFF41000, CID: B105900D, PID: 000BB9A1 TPIU >0x0D TIF> >0x21 TIF>  returns 0x2BA01477 (0076ms, 38785ms total)
T1178 7838:244 JLINK_GetDLLVersion()  returns 50203 (0000ms, 38785ms total)
T1178 7838:244 JLINK_CORE_GetFound()  returns 0xE0000FF (0001ms, 38786ms total)
T1178 7838:245 JLINK_GetDebugInfo(0x100) -- Value=0xE00FF003  returns 0x00 (0000ms, 38786ms total)
T1178 7838:245 JLINK_GetDebugInfo(0x100) -- Value=0xE00FF003  returns 0x00 (0000ms, 38786ms total)
T1178 7838:245 JLINK_GetDebugInfo(0x101)  returns 0xFFFFFFFF (0000ms, 38786ms total)
T1178 7838:245 JLINK_ReadMemEx(0xE0041FF0, 0x0010 Bytes, ..., AccessWidth = 33554436) -- CPU is running -- CPU_ReadMem(16 bytes @ 0xE0041FF0) - Data: 00 00 00 00 00 00 00 00 00 00 00 00 00 00 00 00  returns 0x10 (0002ms, 38788ms total)
T1178 7838:247 JLINK_GetDebugInfo(0x102)  returns 0xFFFFFFFF (0000ms, 38788ms total)
T1178 7838:247 JLINK_GetDebugInfo(0x103)  returns 0xFFFFFFFF (0000ms, 38788ms total)
T1178 7838:247 JLINK_ReadMemEx(0xE0040FF0, 0x0010 Bytes, ..., AccessWidth = 33554436) -- CPU is running -- CPU_ReadMem(16 bytes @ 0xE0040FF0) - Data: 0D 00 00 00 90 00 00 00 05 00 00 00 B1 00 00 00  returns 0x10 (0002ms, 38790ms total)
T1178 7838:249 JLINK_GetDebugInfo(0x104)  returns 0xFFFFFFFF (0000ms, 38790ms total)
T1178 7838:249 JLINK_GetDebugInfo(0x105)  returns 0xFFFFFFFF (0000ms, 38790ms total)
T1178 7838:249 JLINK_GetDebugInfo(0x106)  returns 0xFFFFFFFF (0000ms, 38790ms total)
T1178 7838:249 JLINK_GetDebugInfo(0x107)  returns 0xFFFFFFFF (0000ms, 38790ms total)
T1178 7838:249 JLINK_GetDebugInfo(0x10C)  returns 0xFFFFFFFF (0000ms, 38790ms total)
T1178 7838:249 JLINK_GetDebugInfo(0x01)  returns 0xFFFFFFFF (0000ms, 38790ms total)
T1178 7838:249 JLINK_GetDeviceFamily()  returns 14 (0000ms, 38790ms total)
T1178 7838:249 JLINK_ReadMemU32(0xE000ED00, 0x0001 Items, ...) -- CPU is running -- CPU_ReadMem(4 bytes @ 0xE000ED00) - Data: 41 C2 0F 41  returns 0x01 (0002ms, 38792ms total)
T1178 7838:251 JLINK_GetDebugInfo(0x10F)  returns 0xFFFFFFFF (0000ms, 38792ms total)
T1178 7838:251 JLINK_SetResetType(JLINKARM_RESET_TYPE_BP0)  returns JLINKARM_RESET_TYPE_NORMAL (0000ms, 38792ms total)
T1178 7838:251 JLINK_Reset() -- CPU_WriteMem(4 bytes @ 0xE0002000) -- CPU_ReadMem(4 bytes @ 0xE000EDFC) -- CPU_WriteMem(4 bytes @ 0xE000EDFC) -- CPU_ReadMem(4 bytes @ 0xE0001000) (0015ms, 38807ms total)
T1178 7838:266 JLINK_ReadReg(R15 (PC))  returns 0x0000107C (0000ms, 38807ms total)
T1178 7838:266 JLINK_ReadReg(XPSR)  returns 0x01000000 (0000ms, 38807ms total)
T1178 7838:266 JLINK_Halt()  returns 0x00 (0000ms, 38807ms total)
T1178 7838:266 JLINK_ReadMemU32(0xE000EDF0, 0x0001 Items, ...) -- CPU_ReadMem(4 bytes @ 0xE000EDF0) - Data: 03 00 03 00  returns 0x01 (0001ms, 38808ms total)
T1178 7838:267 JLINK_WriteU32(0xE000EDF0, 0xA05F0003) -- CPU_WriteMem(4 bytes @ 0xE000EDF0)  returns 0x00 (0001ms, 38809ms total)
T1178 7838:268 JLINK_WriteU32(0xE000EDFC, 0x01000000) -- CPU_WriteMem(4 bytes @ 0xE000EDFC)  returns 0x00 (0001ms, 38810ms total)
T1178 7838:269 JLINK_GetHWStatus(...)  returns 0x00 (0001ms, 38811ms total)
T1178 7838:270 JLINK_GetNumBPUnits(Type = 0xFFFFFF00)  returns 0x06 (0000ms, 38811ms total)
T1178 7838:270 JLINK_GetNumBPUnits(Type = 0xF0)  returns 0x2000 (0000ms, 38811ms total)
T1178 7838:270 JLINK_GetNumWPUnits()  returns 0x04 (0000ms, 38811ms total)
T1178 7838:270 JLINK_GetSpeed()  returns 0x3E8 (0001ms, 38812ms total)
T1178 7838:271 JLINK_ReadMemU32(0xE000E004, 0x0001 Items, ...) -- CPU_ReadMem(4 bytes @ 0xE000E004) - Data: 00 00 00 00  returns 0x01 (0001ms, 38813ms total)
T1178 7838:272 JLINK_ReadMemU32(0xE000E004, 0x0001 Items, ...) -- CPU_ReadMem(4 bytes @ 0xE000E004) - Data: 00 00 00 00  returns 0x01 (0002ms, 38815ms total)
T1178 7838:274 JLINK_WriteMemEx(0xE0001000, 0x001C Bytes, ..., AccessWidth = 33554436) - Data: 01 00 00 00 00 00 00 00 00 00 00 00 00 00 00 00 ... -- CPU_WriteMem(28 bytes @ 0xE0001000)  returns 0x1C (0002ms, 38817ms total)
T1178 7838:276 JLINK_ReadReg(R15 (PC))  returns 0x0000107C (0000ms, 38817ms total)
T1178 7838:276 JLINK_ReadReg(XPSR)  returns 0x01000000 (0000ms, 38817ms total)
T1178 7838:481 JLINK_SetResetType(JLINKARM_RESET_TYPE_BP0)  returns JLINKARM_RESET_TYPE_BP0 (0000ms, 38817ms total)
T1178 7838:481 JLINK_Reset() -- CPU_WriteMem(4 bytes @ 0xE0002000) -- CPU_ReadMem(4 bytes @ 0xE000EDFC) -- CPU_WriteMem(4 bytes @ 0xE000EDFC) -- CPU_ReadMem(4 bytes @ 0xE0001000) (0015ms, 38832ms total)
T1178 7838:496 JLINK_ReadReg(R15 (PC))  returns 0x0000107C (0000ms, 38832ms total)
T1178 7838:496 JLINK_ReadReg(XPSR)  returns 0x01000000 (0000ms, 38832ms total)
T1178 7838:496 JLINK_ReadMemEx(0x0000107C, 0x003C Bytes, ..., AccessWidth = 33554432)Mis-aligned memory read: Address: 0x0000107C, NumBytes: 60, Alignment: 2 (Halfword-aligned)
  ***** Mis-aligned memory read: Address: 0x0000107C, NumBytes: 60, Alignment: 2 (Halfword-aligned) -- CPU_ReadMem(60 bytes @ 0x0000107C) - Data: 70 B5 00 20 70 B5 00 20 70 B5 00 20 70 B5 00 20 ...  returns 0x3C (0002ms, 38834ms total)
T1178 7839:325 JLINK_ReadReg(R0)  returns 0x00000000 (0002ms, 38836ms total)
T1178 7839:327 JLINK_ReadReg(R1)  returns 0x00000000 (0000ms, 38836ms total)
T1178 7839:327 JLINK_ReadReg(R2)  returns 0x00000000 (0000ms, 38836ms total)
T1178 7839:327 JLINK_ReadReg(R3)  returns 0x00000000 (0000ms, 38836ms total)
T1178 7839:327 JLINK_ReadReg(R4)  returns 0x00000000 (0000ms, 38836ms total)
T1178 7839:327 JLINK_ReadReg(R5)  returns 0x00000000 (0000ms, 38836ms total)
T1178 7839:327 JLINK_ReadReg(R6)  returns 0x00000000 (0000ms, 38836ms total)
T1178 7839:327 JLINK_ReadReg(R7)  returns 0x00000000 (0000ms, 38836ms total)
T1178 7839:327 JLINK_ReadReg(R8)  returns 0x00000000 (0000ms, 38836ms total)
T1178 7839:327 JLINK_ReadReg(R9)  returns 0x00000000 (0000ms, 38836ms total)
T1178 7839:327 JLINK_ReadReg(R10)  returns 0x00000000 (0000ms, 38836ms total)
T1178 7839:327 JLINK_ReadReg(R11)  returns 0x00000000 (0000ms, 38836ms total)
T1178 7839:327 JLINK_ReadReg(R12)  returns 0x00000000 (0000ms, 38836ms total)
T1178 7839:327 JLINK_ReadReg(R13 (SP))  returns 0x00203800 (0000ms, 38836ms total)
T1178 7839:327 JLINK_ReadReg(R14)  returns 0xFFFFFFFF (0000ms, 38836ms total)
T1178 7839:327 JLINK_ReadReg(R15 (PC))  returns 0x0000107C (0000ms, 38836ms total)
T1178 7839:327 JLINK_ReadReg(XPSR)  returns 0x01000000 (0000ms, 38836ms total)
T1178 7839:327 JLINK_ReadReg(MSP)  returns 0x00203800 (0000ms, 38836ms total)
T1178 7839:327 JLINK_ReadReg(PSP)  returns 0x00000000 (0000ms, 38836ms total)
T1178 7839:327 JLINK_ReadReg(CFBP)  returns 0x00000000 (0000ms, 38836ms total)
T1178 7839:327 JLINK_ReadReg(FPSCR)  returns 0x00000000 (0010ms, 38846ms total)
T1178 7839:337 JLINK_ReadReg(FPS0)  returns 0x00000000 (0000ms, 38846ms total)
T1178 7839:337 JLINK_ReadReg(FPS1)  returns 0x00000000 (0000ms, 38846ms total)
T1178 7839:337 JLINK_ReadReg(FPS2)  returns 0x00000000 (0000ms, 38846ms total)
T1178 7839:337 JLINK_ReadReg(FPS3)  returns 0x00000000 (0000ms, 38846ms total)
T1178 7839:337 JLINK_ReadReg(FPS4)  returns 0x00000000 (0000ms, 38846ms total)
T1178 7839:337 JLINK_ReadReg(FPS5)  returns 0x00000000 (0000ms, 38846ms total)
T1178 7839:337 JLINK_ReadReg(FPS6)  returns 0x00000000 (0000ms, 38846ms total)
T1178 7839:337 JLINK_ReadReg(FPS7)  returns 0x00000000 (0000ms, 38846ms total)
T1178 7839:337 JLINK_ReadReg(FPS8)  returns 0x00000000 (0000ms, 38846ms total)
T1178 7839:337 JLINK_ReadReg(FPS9)  returns 0x00000000 (0000ms, 38846ms total)
T1178 7839:337 JLINK_ReadReg(FPS10)  returns 0x00000000 (0000ms, 38846ms total)
T1178 7839:337 JLINK_ReadReg(FPS11)  returns 0x00000000 (0000ms, 38846ms total)
T1178 7839:337 JLINK_ReadReg(FPS12)  returns 0x00000000 (0000ms, 38846ms total)
T1178 7839:337 JLINK_ReadReg(FPS13)  returns 0x00000000 (0000ms, 38846ms total)
T1178 7839:337 JLINK_ReadReg(FPS14)  returns 0x00000000 (0000ms, 38846ms total)
T1178 7839:337 JLINK_ReadReg(FPS15)  returns 0x00000000 (0000ms, 38846ms total)
T1178 7839:337 JLINK_ReadReg(FPS16)  returns 0x00000000 (0000ms, 38846ms total)
T1178 7839:337 JLINK_ReadReg(FPS17)  returns 0x00000000 (0000ms, 38846ms total)
T1178 7839:337 JLINK_ReadReg(FPS18)  returns 0x00000000 (0000ms, 38846ms total)
T1178 7839:337 JLINK_ReadReg(FPS19)  returns 0x00000000 (0000ms, 38846ms total)
T1178 7839:337 JLINK_ReadReg(FPS20)  returns 0x00000000 (0000ms, 38846ms total)
T1178 7839:337 JLINK_ReadReg(FPS21)  returns 0x00000000 (0000ms, 38846ms total)
T1178 7839:337 JLINK_ReadReg(FPS22)  returns 0x00000000 (0000ms, 38846ms total)
T1178 7839:337 JLINK_ReadReg(FPS23)  returns 0x00000000 (0000ms, 38846ms total)
T1178 7839:338 JLINK_ReadReg(FPS24)  returns 0x00000000 (0000ms, 38847ms total)
T1178 7839:338 JLINK_ReadReg(FPS25)  returns 0x00000000 (0000ms, 38847ms total)
T1178 7839:338 JLINK_ReadReg(FPS26)  returns 0x00000000 (0000ms, 38847ms total)
T1178 7839:338 JLINK_ReadReg(FPS27)  returns 0x00000000 (0000ms, 38847ms total)
T1178 7839:338 JLINK_ReadReg(FPS28)  returns 0x00000000 (0000ms, 38847ms total)
T1178 7839:338 JLINK_ReadReg(FPS29)  returns 0x00000000 (0000ms, 38847ms total)
T1178 7839:338 JLINK_ReadReg(FPS30)  returns 0x00000000 (0000ms, 38847ms total)
T1178 7839:338 JLINK_ReadReg(FPS31)  returns 0x00000000 (0000ms, 38847ms total)
T1178 7839:338 JLINK_ReadMemEx(0x0020896E, 0x0208 Bytes, ..., AccessWidth = 33554432)Mis-aligned memory read: Address: 0x0020896E, NumBytes: 520, Alignment: 2 (Halfword-aligned)
  ***** Mis-aligned memory read: Address: 0x0020896E, NumBytes: 520, Alignment: 2 (Halfword-aligned) -- CPU_ReadMem(520 bytes @ 0x0020896E) - Data: 00 00 00 00 00 00 00 00 00 00 00 00 00 00 00 00 ...  returns 0x208 (0010ms, 38857ms total)
T1178 7839:598 JLINK_ReadMemEx(0x00208200, 0x0004 Bytes, ..., AccessWidth = 33554432)Mis-aligned memory read: Address: 0x00208200, NumBytes: 4, Alignment: 2 (Halfword-aligned)
  ***** Mis-aligned memory read: Address: 0x00208200, NumBytes: 4, Alignment: 2 (Halfword-aligned) -- CPU_ReadMem(4 bytes @ 0x00208200) - Data: 82 00 00 00  returns 0x04 (0001ms, 38858ms total)
T1090 7839:651 JLINK_ReadMemEx(0x0000107C, 0x0002 Bytes, ..., AccessWidth = 33554432)Mis-aligned memory read: Address: 0x0000107C, NumBytes: 2, Alignment: 2 (Halfword-aligned)
  ***** Mis-aligned memory read: Address: 0x0000107C, NumBytes: 2, Alignment: 2 (Halfword-aligned) -- CPU_ReadMem(2 bytes @ 0x0000107C) - Data: 70 B5  returns 0x02 (0002ms, 38860ms total)
T1090 7839:653 JLINK_SetBPEx(Addr = 0x00811BE8, Type = 0xFFFFFFF2)  returns 0x00000001 (0000ms, 38860ms total)
T1090 7839:653 JLINK_SetBPEx(Addr = 0x00815F9C, Type = 0xFFFFFFF2)  returns 0x00000002 (0000ms, 38860ms total)
T1090 7839:653 JLINK_SetBPEx(Addr = 0x00815A48, Type = 0xFFFFFFF2)  returns 0x00000003 (0000ms, 38860ms total)
T1090 7839:653 JLINK_SetBPEx(Addr = 0x0081592E, Type = 0xFFFFFFF2)  returns 0x00000004 (0000ms, 38860ms total)
T1090 7839:653 JLINK_SetBPEx(Addr = 0x008159FE, Type = 0xFFFFFFF2)  returns 0x00000005 (0000ms, 38860ms total)
T1090 7839:653 JLINK_SetBPEx(Addr = 0x008161FC, Type = 0xFFFFFFF2)  returns 0x00000006 (0000ms, 38860ms total)
T1090 7839:653 JLINK_Go() -- CPU_WriteMem(4 bytes @ 0xE0002000) -- CPU_WriteMem(4 bytes @ 0xE0002000) -- CPU_WriteMem(4 bytes @ 0xE0002000) -- CPU_WriteMem(4 bytes @ 0xE0002000) -- CPU_WriteMem(4 bytes @ 0xE0002000) -- CPU_WriteMem(4 bytes @ 0xE0002000) -- CPU_ReadMem(4 bytes @ 0xE0001000) -- CPU_WriteMem(4 bytes @ 0xE0002008) -- CPU_WriteMem(4 bytes @ 0xE000200C) -- CPU_WriteMem(4 bytes @ 0xE0002010) -- CPU_WriteMem(4 bytes @ 0xE0002014) -- CPU_WriteMem(4 bytes @ 0xE0002018)
 -- CPU_WriteMem(4 bytes @ 0xE000201C) -- CPU_WriteMem(4 bytes @ 0xE0001004) (0016ms, 38876ms total)
T1090 7839:769 JLINK_IsHalted()  returns FALSE (0001ms, 38877ms total)
T1090 7839:870 JLINK_IsHalted()  returns FALSE (0001ms, 38877ms total)
T1090 7839:971 JLINK_IsHalted()  returns FALSE (0001ms, 38877ms total)
T1090 7840:072 JLINK_IsHalted()  returns TRUE (0007ms, 38883ms total)
T1090 7840:079 JLINK_Halt()  returns 0x00 (0000ms, 38876ms total)
T1090 7840:079 JLINK_IsHalted()  returns TRUE (0000ms, 38876ms total)
T1090 7840:079 JLINK_IsHalted()  returns TRUE (0000ms, 38876ms total)
T1090 7840:079 JLINK_IsHalted()  returns TRUE (0000ms, 38876ms total)
T1090 7840:079 JLINK_ReadReg(R15 (PC))  returns 0x00811BE8 (0000ms, 38876ms total)
T1090 7840:079 JLINK_ReadReg(XPSR)  returns 0x61000000 (0000ms, 38876ms total)
T1090 7840:079 JLINK_ClrBPEx(BPHandle = 0x00000001)  returns 0x00 (0000ms, 38876ms total)
T1090 7840:079 JLINK_ClrBPEx(BPHandle = 0x00000002)  returns 0x00 (0000ms, 38876ms total)
T1090 7840:079 JLINK_ClrBPEx(BPHandle = 0x00000003)  returns 0x00 (0000ms, 38876ms total)
T1090 7840:079 JLINK_ClrBPEx(BPHandle = 0x00000004)  returns 0x00 (0000ms, 38876ms total)
T1090 7840:079 JLINK_ClrBPEx(BPHandle = 0x00000005)  returns 0x00 (0000ms, 38876ms total)
T1090 7840:079 JLINK_ClrBPEx(BPHandle = 0x00000006)  returns 0x00 (0000ms, 38876ms total)
T1090 7840:079 JLINK_ReadMemU32(0xE000ED30, 0x0001 Items, ...) -- CPU_ReadMem(4 bytes @ 0xE000ED30) - Data: 03 00 00 00  returns 0x01 (0002ms, 38878ms total)
T1090 7840:081 JLINK_ReadMemU32(0xE0001028, 0x0001 Items, ...) -- CPU_ReadMem(4 bytes @ 0xE0001028) - Data: 00 00 00 00  returns 0x01 (0001ms, 38879ms total)
T1090 7840:082 JLINK_ReadMemU32(0xE0001038, 0x0001 Items, ...) -- CPU_ReadMem(4 bytes @ 0xE0001038) - Data: 00 02 00 00  returns 0x01 (0001ms, 38880ms total)
T1090 7840:083 JLINK_ReadMemU32(0xE0001048, 0x0001 Items, ...) -- CPU_ReadMem(4 bytes @ 0xE0001048) - Data: 00 00 00 00  returns 0x01 (0001ms, 38881ms total)
T1090 7840:084 JLINK_ReadMemU32(0xE0001058, 0x0001 Items, ...) -- CPU_ReadMem(4 bytes @ 0xE0001058) - Data: 00 00 00 00  returns 0x01 (0001ms, 38882ms total)
T1090 7840:085 JLINK_ReadReg(R0)  returns 0x00000000 (0000ms, 38882ms total)
T1090 7840:085 JLINK_ReadReg(R1)  returns 0x40024000 (0000ms, 38882ms total)
T1090 7840:085 JLINK_ReadReg(R2)  returns 0x40024000 (0000ms, 38882ms total)
T1090 7840:085 JLINK_ReadReg(R3)  returns 0x00000065 (0000ms, 38882ms total)
T1090 7840:085 JLINK_ReadReg(R4)  returns 0x00200164 (0000ms, 38882ms total)
T1090 7840:085 JLINK_ReadReg(R5)  returns 0x002027B4 (0000ms, 38882ms total)
T1090 7840:085 JLINK_ReadReg(R6)  returns 0x21100301 (0000ms, 38882ms total)
T1090 7840:085 JLINK_ReadReg(R7)  returns 0x00000008 (0000ms, 38882ms total)
T1090 7840:085 JLINK_ReadReg(R8)  returns 0x00000000 (0000ms, 38882ms total)
T1090 7840:085 JLINK_ReadReg(R9)  returns 0x00000000 (0000ms, 38882ms total)
T1090 7840:085 JLINK_ReadReg(R10)  returns 0x00000000 (0000ms, 38882ms total)
T1090 7840:085 JLINK_ReadReg(R11)  returns 0x00000000 (0000ms, 38882ms total)
T1090 7840:085 JLINK_ReadReg(R12)  returns 0x00000000 (0000ms, 38882ms total)
T1090 7840:085 JLINK_ReadReg(R13 (SP))  returns 0x002037E0 (0000ms, 38882ms total)
T1090 7840:085 JLINK_ReadReg(R14)  returns 0x0080E42B (0000ms, 38882ms total)
T1090 7840:085 JLINK_ReadReg(R15 (PC))  returns 0x00811BE8 (0000ms, 38882ms total)
T1090 7840:085 JLINK_ReadReg(XPSR)  returns 0x61000000 (0000ms, 38882ms total)
T1090 7840:086 JLINK_ReadReg(MSP)  returns 0x002037E0 (0000ms, 38882ms total)
T1090 7840:086 JLINK_ReadReg(PSP)  returns 0x00000000 (0000ms, 38882ms total)
T1090 7840:086 JLINK_ReadReg(CFBP)  returns 0x04000001 (0000ms, 38882ms total)
T1090 7840:086 JLINK_ReadReg(FPSCR)  returns 0x03000000 (0010ms, 38892ms total)
T1090 7840:096 JLINK_ReadReg(FPS0)  returns 0x3FD80438 (0000ms, 38892ms total)
T1090 7840:096 JLINK_ReadReg(FPS1)  returns 0x3ED19918 (0000ms, 38892ms total)
T1090 7840:096 JLINK_ReadReg(FPS2)  returns 0x3C861D00 (0000ms, 38892ms total)
T1090 7840:096 JLINK_ReadReg(FPS3)  returns 0x447A0000 (0000ms, 38892ms total)
T1090 7840:096 JLINK_ReadReg(FPS4)  returns 0x3F947AE1 (0000ms, 38892ms total)
T1090 7840:096 JLINK_ReadReg(FPS5)  returns 0x3F8CCCCD (0000ms, 38892ms total)
T1090 7840:096 JLINK_ReadReg(FPS6)  returns 0x3F5C28F6 (0000ms, 38892ms total)
T1090 7840:096 JLINK_ReadReg(FPS7)  returns 0x00000000 (0000ms, 38892ms total)
T1090 7840:096 JLINK_ReadReg(FPS8)  returns 0x00000000 (0000ms, 38892ms total)
T1090 7840:096 JLINK_ReadReg(FPS9)  returns 0x00000000 (0000ms, 38892ms total)
T1090 7840:096 JLINK_ReadReg(FPS10)  returns 0x00000000 (0000ms, 38892ms total)
T1090 7840:096 JLINK_ReadReg(FPS11)  returns 0x00000000 (0000ms, 38892ms total)
T1090 7840:096 JLINK_ReadReg(FPS12)  returns 0x00000000 (0000ms, 38892ms total)
T1090 7840:096 JLINK_ReadReg(FPS13)  returns 0x00000000 (0000ms, 38892ms total)
T1090 7840:096 JLINK_ReadReg(FPS14)  returns 0x00000000 (0000ms, 38892ms total)
T1090 7840:096 JLINK_ReadReg(FPS15)  returns 0x00000000 (0000ms, 38892ms total)
T1090 7840:096 JLINK_ReadReg(FPS16)  returns 0x00000000 (0000ms, 38892ms total)
T1090 7840:096 JLINK_ReadReg(FPS17)  returns 0x00000000 (0001ms, 38893ms total)
T1090 7840:097 JLINK_ReadReg(FPS18)  returns 0x00000000 (0000ms, 38893ms total)
T1090 7840:097 JLINK_ReadReg(FPS19)  returns 0x00000000 (0000ms, 38893ms total)
T1090 7840:097 JLINK_ReadReg(FPS20)  returns 0x00000000 (0000ms, 38893ms total)
T1090 7840:097 JLINK_ReadReg(FPS21)  returns 0x00000000 (0000ms, 38893ms total)
T1090 7840:097 JLINK_ReadReg(FPS22)  returns 0x00000000 (0000ms, 38893ms total)
T1090 7840:097 JLINK_ReadReg(FPS23)  returns 0x00000000 (0000ms, 38893ms total)
T1090 7840:097 JLINK_ReadReg(FPS24)  returns 0x00000000 (0000ms, 38893ms total)
T1090 7840:097 JLINK_ReadReg(FPS25)  returns 0x00000000 (0000ms, 38893ms total)
T1090 7840:097 JLINK_ReadReg(FPS26)  returns 0x00000000 (0000ms, 38893ms total)
T1090 7840:097 JLINK_ReadReg(FPS27)  returns 0x00000000 (0000ms, 38893ms total)
T1090 7840:097 JLINK_ReadReg(FPS28)  returns 0x00000000 (0000ms, 38893ms total)
T1090 7840:097 JLINK_ReadReg(FPS29)  returns 0x00000000 (0000ms, 38893ms total)
T1090 7840:097 JLINK_ReadReg(FPS30)  returns 0x00000000 (0000ms, 38893ms total)
T1090 7840:097 JLINK_ReadReg(FPS31)  returns 0x00000000 (0000ms, 38893ms total)
T1178 7840:102 JLINK_ReadMemEx(0x00208200, 0x0004 Bytes, ..., AccessWidth = 33554432)Mis-aligned memory read: Address: 0x00208200, NumBytes: 4, Alignment: 2 (Halfword-aligned)
  ***** Mis-aligned memory read: Address: 0x00208200, NumBytes: 4, Alignment: 2 (Halfword-aligned) -- CPU_ReadMem(4 bytes @ 0x00208200) - Data: 03 00 00 00  returns 0x04 (0002ms, 38895ms total)
T1178 7840:106 JLINK_ReadMemEx(0x0020896E, 0x0208 Bytes, ..., AccessWidth = 33554432)Mis-aligned memory read: Address: 0x0020896E, NumBytes: 520, Alignment: 2 (Halfword-aligned)
  ***** Mis-aligned memory read: Address: 0x0020896E, NumBytes: 520, Alignment: 2 (Halfword-aligned) -- CPU_ReadMem(520 bytes @ 0x0020896E) - Data: 00 00 00 00 00 00 00 00 00 00 00 00 00 00 00 00 ...  returns 0x208 (0010ms, 38905ms total)
T1178 7840:120 JLINK_ReadMemEx(0x00811BE8, 0x0018 Bytes, ..., AccessWidth = 33554432)Mis-aligned memory read: Address: 0x00811BE8, NumBytes: 24, Alignment: 2 (Halfword-aligned)
  ***** Mis-aligned memory read: Address: 0x00811BE8, NumBytes: 24, Alignment: 2 (Halfword-aligned) -- CPU_ReadMem(64 bytes @ 0x00811BC0) -- Updating DA cache (64 bytes @ 0x00811BC0) -- Read from DA cache (24 bytes @ 0x00811BE8) - Data: 10 B5 16 20 2D F4 0A F1 1D 4C 40 09 24 1F 20 70 ...  returns 0x18 (0003ms, 38908ms total)
T1178 7840:123 JLINK_ReadMemEx(0x00811C00, 0x0024 Bytes, ..., AccessWidth = 33554432)Mis-aligned memory read: Address: 0x00811C00, NumBytes: 36, Alignment: 2 (Halfword-aligned)
  ***** Mis-aligned memory read: Address: 0x00811C00, NumBytes: 36, Alignment: 2 (Halfword-aligned) -- CPU_ReadMem(64 bytes @ 0x00811C00) -- Updating DA cache (64 bytes @ 0x00811C00) -- Read from DA cache (36 bytes @ 0x00811C00) - Data: E0 01 16 20 2D F4 1F F1 20 78 20 B1 02 28 05 D0 ...  returns 0x24 (0002ms, 38910ms total)
T1090 7840:977 JLINK_ReadMemEx(0x00811BE8, 0x0002 Bytes, ..., AccessWidth = 33554432)Mis-aligned memory read: Address: 0x00811BE8, NumBytes: 2, Alignment: 2 (Halfword-aligned)
  ***** Mis-aligned memory read: Address: 0x00811BE8, NumBytes: 2, Alignment: 2 (Halfword-aligned) -- Read from DA cache (2 bytes @ 0x00811BE8) - Data: 10 B5  returns 0x02 (0008ms, 38918ms total)
T1090 7840:985 JLINK_SetBPEx(Addr = 0x00815F9C, Type = 0xFFFFFFF2)  returns 0x00000007 (0000ms, 38918ms total)
T1090 7840:986 JLINK_SetBPEx(Addr = 0x00815A48, Type = 0xFFFFFFF2)  returns 0x00000008 (0000ms, 38919ms total)
T1090 7840:986 JLINK_SetBPEx(Addr = 0x0081592E, Type = 0xFFFFFFF2)  returns 0x00000009 (0000ms, 38919ms total)
T1090 7840:986 JLINK_SetBPEx(Addr = 0x008159FE, Type = 0xFFFFFFF2)  returns 0x0000000A (0000ms, 38919ms total)
T1090 7840:986 JLINK_SetBPEx(Addr = 0x008161FC, Type = 0xFFFFFFF2)  returns 0x0000000B (0000ms, 38919ms total)
T1090 7840:986 JLINK_Go() -- CPU_WriteMem(4 bytes @ 0xE0002000) -- CPU_WriteMem(4 bytes @ 0xE0002000) -- CPU_WriteMem(4 bytes @ 0xE0002000) -- CPU_WriteMem(4 bytes @ 0xE0002000) -- CPU_WriteMem(4 bytes @ 0xE0002000) -- CPU_ReadMem(4 bytes @ 0xE0001000) -- CPU_WriteMem(4 bytes @ 0xE0002008) -- CPU_WriteMem(4 bytes @ 0xE000200C) -- CPU_WriteMem(4 bytes @ 0xE0002010) -- CPU_WriteMem(4 bytes @ 0xE0002014) -- CPU_WriteMem(4 bytes @ 0xE0002018) -- CPU_WriteMem(4 bytes @ 0xE000201C) (0015ms, 38934ms total)
T1090 7841:101 JLINK_IsHalted()  returns TRUE (0007ms, 38941ms total)
T1090 7841:108 JLINK_Halt()  returns 0x00 (0000ms, 38934ms total)
T1090 7841:108 JLINK_IsHalted()  returns TRUE (0000ms, 38934ms total)
T1090 7841:108 JLINK_IsHalted()  returns TRUE (0000ms, 38934ms total)
T1090 7841:108 JLINK_IsHalted()  returns TRUE (0000ms, 38934ms total)
T1090 7841:108 JLINK_ReadReg(R15 (PC))  returns 0x00815F9C (0000ms, 38934ms total)
T1090 7841:108 JLINK_ReadReg(XPSR)  returns 0x61000000 (0000ms, 38934ms total)
T1090 7841:108 JLINK_ClrBPEx(BPHandle = 0x00000007)  returns 0x00 (0000ms, 38934ms total)
T1090 7841:108 JLINK_ClrBPEx(BPHandle = 0x00000008)  returns 0x00 (0000ms, 38934ms total)
T1090 7841:108 JLINK_ClrBPEx(BPHandle = 0x00000009)  returns 0x00 (0000ms, 38934ms total)
T1090 7841:108 JLINK_ClrBPEx(BPHandle = 0x0000000A)  returns 0x00 (0000ms, 38934ms total)
T1090 7841:108 JLINK_ClrBPEx(BPHandle = 0x0000000B)  returns 0x00 (0000ms, 38934ms total)
T1090 7841:108 JLINK_ReadMemU32(0xE000ED30, 0x0001 Items, ...) -- CPU_ReadMem(4 bytes @ 0xE000ED30) - Data: 03 00 00 00  returns 0x01 (0002ms, 38936ms total)
T1090 7841:110 JLINK_ReadMemU32(0xE0001028, 0x0001 Items, ...) -- CPU_ReadMem(4 bytes @ 0xE0001028) - Data: 00 00 00 00  returns 0x01 (0001ms, 38937ms total)
T1090 7841:111 JLINK_ReadMemU32(0xE0001038, 0x0001 Items, ...) -- CPU_ReadMem(4 bytes @ 0xE0001038) - Data: 00 02 00 00  returns 0x01 (0001ms, 38938ms total)
T1090 7841:112 JLINK_ReadMemU32(0xE0001048, 0x0001 Items, ...) -- CPU_ReadMem(4 bytes @ 0xE0001048) - Data: 00 00 00 00  returns 0x01 (0001ms, 38939ms total)
T1090 7841:113 JLINK_ReadMemU32(0xE0001058, 0x0001 Items, ...) -- CPU_ReadMem(4 bytes @ 0xE0001058) - Data: 00 00 00 00  returns 0x01 (0001ms, 38940ms total)
T1090 7841:114 JLINK_ReadReg(R0)  returns 0x40012000 (0000ms, 38940ms total)
T1090 7841:114 JLINK_ReadReg(R1)  returns 0x40011000 (0000ms, 38940ms total)
T1090 7841:114 JLINK_ReadReg(R2)  returns 0x40024000 (0000ms, 38940ms total)
T1090 7841:114 JLINK_ReadReg(R3)  returns 0x0000000A (0000ms, 38940ms total)
T1090 7841:114 JLINK_ReadReg(R4)  returns 0x00000010 (0000ms, 38940ms total)
T1090 7841:114 JLINK_ReadReg(R5)  returns 0x21000000 (0000ms, 38940ms total)
T1090 7841:114 JLINK_ReadReg(R6)  returns 0x00000001 (0000ms, 38940ms total)
T1090 7841:114 JLINK_ReadReg(R7)  returns 0x00208694 (0000ms, 38940ms total)
T1090 7841:114 JLINK_ReadReg(R8)  returns 0x00000000 (0000ms, 38940ms total)
T1090 7841:114 JLINK_ReadReg(R9)  returns 0x00208660 (0000ms, 38940ms total)
T1090 7841:114 JLINK_ReadReg(R10)  returns 0x21000000 (0000ms, 38940ms total)
T1090 7841:114 JLINK_ReadReg(R11)  returns 0x00000000 (0000ms, 38940ms total)
T1090 7841:114 JLINK_ReadReg(R12)  returns 0x00000000 (0000ms, 38940ms total)
T1090 7841:114 JLINK_ReadReg(R13 (SP))  returns 0x00203750 (0000ms, 38940ms total)
T1090 7841:114 JLINK_ReadReg(R14)  returns 0x00007973 (0000ms, 38940ms total)
T1090 7841:114 JLINK_ReadReg(R15 (PC))  returns 0x00815F9C (0000ms, 38940ms total)
T1090 7841:114 JLINK_ReadReg(XPSR)  returns 0x61000000 (0000ms, 38940ms total)
T1090 7841:114 JLINK_ReadReg(MSP)  returns 0x00203750 (0000ms, 38940ms total)
T1090 7841:114 JLINK_ReadReg(PSP)  returns 0x00000000 (0000ms, 38940ms total)
T1090 7841:114 JLINK_ReadReg(CFBP)  returns 0x04000001 (0000ms, 38940ms total)
T1090 7841:114 JLINK_ReadReg(FPSCR)  returns 0x03000000 (0011ms, 38951ms total)
T1090 7841:125 JLINK_ReadReg(FPS0)  returns 0x3FD80438 (0000ms, 38951ms total)
T1090 7841:125 JLINK_ReadReg(FPS1)  returns 0x3ED19918 (0000ms, 38951ms total)
T1090 7841:125 JLINK_ReadReg(FPS2)  returns 0x3C861D00 (0000ms, 38951ms total)
T1090 7841:125 JLINK_ReadReg(FPS3)  returns 0x447A0000 (0000ms, 38951ms total)
T1090 7841:125 JLINK_ReadReg(FPS4)  returns 0x3F947AE1 (0000ms, 38951ms total)
T1090 7841:125 JLINK_ReadReg(FPS5)  returns 0x3F8CCCCD (0000ms, 38951ms total)
T1090 7841:125 JLINK_ReadReg(FPS6)  returns 0x3F5C28F6 (0000ms, 38951ms total)
T1090 7841:125 JLINK_ReadReg(FPS7)  returns 0x00000000 (0000ms, 38951ms total)
T1090 7841:125 JLINK_ReadReg(FPS8)  returns 0x00000000 (0000ms, 38951ms total)
T1090 7841:125 JLINK_ReadReg(FPS9)  returns 0x00000000 (0000ms, 38951ms total)
T1090 7841:125 JLINK_ReadReg(FPS10)  returns 0x00000000 (0000ms, 38951ms total)
T1090 7841:125 JLINK_ReadReg(FPS11)  returns 0x00000000 (0000ms, 38951ms total)
T1090 7841:125 JLINK_ReadReg(FPS12)  returns 0x00000000 (0000ms, 38951ms total)
T1090 7841:125 JLINK_ReadReg(FPS13)  returns 0x00000000 (0000ms, 38951ms total)
T1090 7841:125 JLINK_ReadReg(FPS14)  returns 0x00000000 (0000ms, 38951ms total)
T1090 7841:125 JLINK_ReadReg(FPS15)  returns 0x00000000 (0000ms, 38951ms total)
T1090 7841:125 JLINK_ReadReg(FPS16)  returns 0x00000000 (0000ms, 38951ms total)
T1090 7841:125 JLINK_ReadReg(FPS17)  returns 0x00000000 (0000ms, 38951ms total)
T1090 7841:125 JLINK_ReadReg(FPS18)  returns 0x00000000 (0000ms, 38951ms total)
T1090 7841:125 JLINK_ReadReg(FPS19)  returns 0x00000000 (0000ms, 38951ms total)
T1090 7841:125 JLINK_ReadReg(FPS20)  returns 0x00000000 (0000ms, 38951ms total)
T1090 7841:125 JLINK_ReadReg(FPS21)  returns 0x00000000 (0000ms, 38951ms total)
T1090 7841:125 JLINK_ReadReg(FPS22)  returns 0x00000000 (0000ms, 38951ms total)
T1090 7841:125 JLINK_ReadReg(FPS23)  returns 0x00000000 (0001ms, 38952ms total)
T1090 7841:126 JLINK_ReadReg(FPS24)  returns 0x00000000 (0000ms, 38952ms total)
T1090 7841:126 JLINK_ReadReg(FPS25)  returns 0x00000000 (0000ms, 38952ms total)
T1090 7841:126 JLINK_ReadReg(FPS26)  returns 0x00000000 (0000ms, 38952ms total)
T1090 7841:126 JLINK_ReadReg(FPS27)  returns 0x00000000 (0000ms, 38952ms total)
T1090 7841:126 JLINK_ReadReg(FPS28)  returns 0x00000000 (0000ms, 38952ms total)
T1090 7841:126 JLINK_ReadReg(FPS29)  returns 0x00000000 (0000ms, 38952ms total)
T1090 7841:126 JLINK_ReadReg(FPS30)  returns 0x00000000 (0000ms, 38952ms total)
T1090 7841:126 JLINK_ReadReg(FPS31)  returns 0x00000000 (0000ms, 38952ms total)
T1178 7841:127 JLINK_ReadMemEx(0x00208200, 0x0004 Bytes, ..., AccessWidth = 33554432)Mis-aligned memory read: Address: 0x00208200, NumBytes: 4, Alignment: 2 (Halfword-aligned)
  ***** Mis-aligned memory read: Address: 0x00208200, NumBytes: 4, Alignment: 2 (Halfword-aligned) -- CPU_ReadMem(4 bytes @ 0x00208200) - Data: 03 00 00 00  returns 0x04 (0001ms, 38953ms total)
T1178 7841:131 JLINK_ReadMemEx(0x0020896E, 0x0208 Bytes, ..., AccessWidth = 33554432)Mis-aligned memory read: Address: 0x0020896E, NumBytes: 520, Alignment: 2 (Halfword-aligned)
  ***** Mis-aligned memory read: Address: 0x0020896E, NumBytes: 520, Alignment: 2 (Halfword-aligned) -- CPU_ReadMem(520 bytes @ 0x0020896E) - Data: 00 00 00 00 00 00 00 00 00 00 00 00 00 00 00 00 ...  returns 0x208 (0009ms, 38962ms total)
T1090 7843:734 JLINK_ReadMemEx(0x00815F9C, 0x0002 Bytes, ..., AccessWidth = 33554432)Mis-aligned memory read: Address: 0x00815F9C, NumBytes: 2, Alignment: 2 (Halfword-aligned)
  ***** Mis-aligned memory read: Address: 0x00815F9C, NumBytes: 2, Alignment: 2 (Halfword-aligned) -- CPU_ReadMem(64 bytes @ 0x00815F80) -- Updating DA cache (64 bytes @ 0x00815F80) -- Read from DA cache (2 bytes @ 0x00815F9C) - Data: 97 F8  returns 0x02 (0013ms, 38975ms total)
T1090 7843:747 JLINK_Step() -- Read from DA cache (2 bytes @ 0x00815F9C) -- CPU_ReadMem(4 bytes @ 0xE0001004) -- Not simulated -- CPU_WriteMem(4 bytes @ 0xE0002008) -- CPU_WriteMem(4 bytes @ 0xE000200C) -- CPU_WriteMem(4 bytes @ 0xE0002010) -- CPU_WriteMem(4 bytes @ 0xE0002014) -- CPU_WriteMem(4 bytes @ 0xE0002018)  returns 0x00 (0016ms, 38991ms total)
T1090 7843:763 JLINK_ReadReg(R15 (PC))  returns 0x00815FA0 (0000ms, 38991ms total)
T1090 7843:763 JLINK_ReadReg(XPSR)  returns 0x61000000 (0000ms, 38991ms total)
T1090 7843:763 JLINK_SetBPEx(Addr = 0x00815F9C, Type = 0xFFFFFFF2)  returns 0x0000000C (0000ms, 38991ms total)
T1090 7843:763 JLINK_SetBPEx(Addr = 0x00815A48, Type = 0xFFFFFFF2)  returns 0x0000000D (0000ms, 38991ms total)
T1090 7843:763 JLINK_SetBPEx(Addr = 0x0081592E, Type = 0xFFFFFFF2)  returns 0x0000000E (0000ms, 38991ms total)
T1090 7843:763 JLINK_SetBPEx(Addr = 0x008159FE, Type = 0xFFFFFFF2)  returns 0x0000000F (0000ms, 38991ms total)
T1090 7843:763 JLINK_SetBPEx(Addr = 0x008161FC, Type = 0xFFFFFFF2)  returns 0x00000010 (0000ms, 38991ms total)
T1090 7843:763 JLINK_Go() -- CPU_WriteMem(4 bytes @ 0xE0002000) -- CPU_WriteMem(4 bytes @ 0xE0002000) -- CPU_WriteMem(4 bytes @ 0xE0002000) -- CPU_WriteMem(4 bytes @ 0xE0002000) -- CPU_WriteMem(4 bytes @ 0xE0002000) -- CPU_ReadMem(4 bytes @ 0xE0001000) -- CPU_WriteMem(4 bytes @ 0xE0002008) -- CPU_WriteMem(4 bytes @ 0xE000200C) -- CPU_WriteMem(4 bytes @ 0xE0002010) -- CPU_WriteMem(4 bytes @ 0xE0002014) -- CPU_WriteMem(4 bytes @ 0xE0002018) (0013ms, 39004ms total)
T1090 7843:877 JLINK_IsHalted()  returns FALSE (0001ms, 39005ms total)
T1090 7843:978 JLINK_IsHalted()  returns FALSE (0001ms, 39005ms total)
T1090 7844:079 JLINK_IsHalted()  returns FALSE (0001ms, 39005ms total)
T1090 7844:180 JLINK_IsHalted()  returns FALSE (0001ms, 39005ms total)
T1090 7844:281 JLINK_IsHalted()  returns FALSE (0001ms, 39005ms total)
T1090 7844:382 JLINK_IsHalted()  returns FALSE (0001ms, 39005ms total)
T1090 7844:483 JLINK_IsHalted()  returns FALSE (0000ms, 39004ms total)
T1090 7844:583 JLINK_IsHalted()  returns FALSE (0001ms, 39005ms total)
T1090 7844:684 JLINK_IsHalted()  returns FALSE (0001ms, 39005ms total)
T1090 7844:785 JLINK_IsHalted()  returns FALSE (0002ms, 39006ms total)
T1090 7844:887 JLINK_IsHalted()  returns FALSE (0001ms, 39005ms total)
T1090 7844:988 JLINK_IsHalted()  returns FALSE (0027ms, 39031ms total)
T1090 7845:115 JLINK_IsHalted()  returns FALSE (0000ms, 39004ms total)
T1090 7845:215 JLINK_IsHalted()  returns FALSE (0001ms, 39005ms total)
T1090 7845:316 JLINK_IsHalted()  returns FALSE (0001ms, 39005ms total)
T1090 7845:417 JLINK_IsHalted()  returns FALSE (0001ms, 39005ms total)
T1090 7845:518 JLINK_IsHalted()  returns FALSE (0001ms, 39005ms total)
T1090 7845:619 JLINK_IsHalted()  returns FALSE (0001ms, 39005ms total)
T1090 7845:720 JLINK_IsHalted()  returns FALSE (0001ms, 39005ms total)
T1090 7845:821 JLINK_IsHalted()  returns FALSE (0002ms, 39006ms total)
T1090 7845:923 JLINK_IsHalted()  returns FALSE (0000ms, 39004ms total)
T1090 7846:023 JLINK_IsHalted()  returns FALSE (0001ms, 39005ms total)
T1090 7846:124 JLINK_IsHalted()  returns FALSE (0001ms, 39005ms total)
T1090 7846:225 JLINK_IsHalted()  returns FALSE (0001ms, 39005ms total)
T1090 7846:326 JLINK_IsHalted()  returns FALSE (0001ms, 39005ms total)
T1090 7846:427 JLINK_IsHalted()  returns FALSE (0001ms, 39005ms total)
T1090 7846:528 JLINK_IsHalted()  returns FALSE (0001ms, 39005ms total)
T1090 7846:629 JLINK_IsHalted()  returns FALSE (0001ms, 39005ms total)
T1090 7846:730 JLINK_IsHalted()  returns FALSE (0001ms, 39005ms total)
T1090 7846:831 JLINK_IsHalted()  returns FALSE (0002ms, 39006ms total)
T1090 7846:933 JLINK_IsHalted()  returns FALSE (0001ms, 39005ms total)
T1090 7847:034 JLINK_IsHalted()  returns FALSE (0001ms, 39005ms total)
T1090 7847:135 JLINK_IsHalted()  returns FALSE (0001ms, 39005ms total)
T1090 7847:236 JLINK_IsHalted()  returns FALSE (0001ms, 39005ms total)
T1090 7847:337 JLINK_IsHalted()  returns FALSE (0001ms, 39005ms total)
T1090 7847:438 JLINK_IsHalted()  returns FALSE (0001ms, 39005ms total)
T1090 7847:539 JLINK_IsHalted()  returns TRUE (0007ms, 39011ms total)
T1090 7847:546 JLINK_Halt()  returns 0x00 (0000ms, 39004ms total)
T1090 7847:546 JLINK_IsHalted()  returns TRUE (0000ms, 39004ms total)
T1090 7847:546 JLINK_IsHalted()  returns TRUE (0000ms, 39004ms total)
T1090 7847:546 JLINK_IsHalted()  returns TRUE (0000ms, 39004ms total)
T1090 7847:546 JLINK_ReadReg(R15 (PC))  returns 0x008161FC (0000ms, 39004ms total)
T1090 7847:546 JLINK_ReadReg(XPSR)  returns 0x21000000 (0000ms, 39004ms total)
T1090 7847:546 JLINK_ClrBPEx(BPHandle = 0x0000000C)  returns 0x00 (0000ms, 39004ms total)
T1090 7847:546 JLINK_ClrBPEx(BPHandle = 0x0000000D)  returns 0x00 (0000ms, 39004ms total)
T1090 7847:546 JLINK_ClrBPEx(BPHandle = 0x0000000E)  returns 0x00 (0000ms, 39004ms total)
T1090 7847:546 JLINK_ClrBPEx(BPHandle = 0x0000000F)  returns 0x00 (0000ms, 39004ms total)
T1090 7847:546 JLINK_ClrBPEx(BPHandle = 0x00000010)  returns 0x00 (0000ms, 39004ms total)
T1090 7847:546 JLINK_ReadMemU32(0xE000ED30, 0x0001 Items, ...) -- CPU_ReadMem(4 bytes @ 0xE000ED30) - Data: 03 00 00 00  returns 0x01 (0002ms, 39006ms total)
T1090 7847:548 JLINK_ReadMemU32(0xE0001028, 0x0001 Items, ...) -- CPU_ReadMem(4 bytes @ 0xE0001028) - Data: 00 00 00 00  returns 0x01 (0001ms, 39007ms total)
T1090 7847:549 JLINK_ReadMemU32(0xE0001038, 0x0001 Items, ...) -- CPU_ReadMem(4 bytes @ 0xE0001038) - Data: 00 02 00 00  returns 0x01 (0001ms, 39008ms total)
T1090 7847:550 JLINK_ReadMemU32(0xE0001048, 0x0001 Items, ...) -- CPU_ReadMem(4 bytes @ 0xE0001048) - Data: 00 00 00 00  returns 0x01 (0001ms, 39009ms total)
T1090 7847:551 JLINK_ReadMemU32(0xE0001058, 0x0001 Items, ...) -- CPU_ReadMem(4 bytes @ 0xE0001058) - Data: 00 00 00 00  returns 0x01 (0002ms, 39011ms total)
T1090 7847:553 JLINK_ReadReg(R0)  returns 0x00000001 (0000ms, 39011ms total)
T1090 7847:553 JLINK_ReadReg(R1)  returns 0x0082EBC4 (0000ms, 39011ms total)
T1090 7847:553 JLINK_ReadReg(R2)  returns 0x00000006 (0000ms, 39011ms total)
T1090 7847:553 JLINK_ReadReg(R3)  returns 0x00000006 (0000ms, 39011ms total)
T1090 7847:553 JLINK_ReadReg(R4)  returns 0x0028603E (0000ms, 39011ms total)
T1090 7847:553 JLINK_ReadReg(R5)  returns 0x00000015 (0000ms, 39011ms total)
T1090 7847:553 JLINK_ReadReg(R6)  returns 0x002085E0 (0000ms, 39011ms total)
T1090 7847:553 JLINK_ReadReg(R7)  returns 0x008161CD (0000ms, 39011ms total)
T1090 7847:553 JLINK_ReadReg(R8)  returns 0xA5A5A5A5 (0000ms, 39011ms total)
T1090 7847:553 JLINK_ReadReg(R9)  returns 0xA5A5A5A5 (0000ms, 39011ms total)
T1090 7847:553 JLINK_ReadReg(R10)  returns 0xA5A5A5A5 (0000ms, 39011ms total)
T1090 7847:553 JLINK_ReadReg(R11)  returns 0xA5A5A5A5 (0000ms, 39011ms total)
T1090 7847:553 JLINK_ReadReg(R12)  returns 0x00000000 (0000ms, 39011ms total)
T1090 7847:553 JLINK_ReadReg(R13 (SP))  returns 0x00211D80 (0000ms, 39011ms total)
T1090 7847:553 JLINK_ReadReg(R14)  returns 0x008161F9 (0000ms, 39011ms total)
T1090 7847:553 JLINK_ReadReg(R15 (PC))  returns 0x008161FC (0000ms, 39011ms total)
T1090 7847:553 JLINK_ReadReg(XPSR)  returns 0x21000000 (0000ms, 39011ms total)
T1090 7847:553 JLINK_ReadReg(MSP)  returns 0x00203798 (0000ms, 39011ms total)
T1090 7847:553 JLINK_ReadReg(PSP)  returns 0x00211D80 (0000ms, 39011ms total)
T1090 7847:553 JLINK_ReadReg(CFBP)  returns 0x02000000 (0000ms, 39011ms total)
T1090 7847:553 JLINK_ReadReg(FPSCR)  returns 0x23000010 (0010ms, 39021ms total)
T1090 7847:563 JLINK_ReadReg(FPS0)  returns 0x00000B44 (0001ms, 39022ms total)
T1090 7847:564 JLINK_ReadReg(FPS1)  returns 0xC314B333 (0000ms, 39022ms total)
T1090 7847:564 JLINK_ReadReg(FPS2)  returns 0xC4B9E000 (0000ms, 39022ms total)
T1090 7847:564 JLINK_ReadReg(FPS3)  returns 0x41200000 (0000ms, 39022ms total)
T1090 7847:564 JLINK_ReadReg(FPS4)  returns 0x3F947AE1 (0000ms, 39022ms total)
T1090 7847:564 JLINK_ReadReg(FPS5)  returns 0x3F8CCCCD (0000ms, 39022ms total)
T1090 7847:564 JLINK_ReadReg(FPS6)  returns 0x3F5C28F6 (0000ms, 39022ms total)
T1090 7847:564 JLINK_ReadReg(FPS7)  returns 0x00000000 (0000ms, 39022ms total)
T1090 7847:564 JLINK_ReadReg(FPS8)  returns 0x00000000 (0000ms, 39022ms total)
T1090 7847:564 JLINK_ReadReg(FPS9)  returns 0x00000000 (0000ms, 39022ms total)
T1090 7847:564 JLINK_ReadReg(FPS10)  returns 0x00000000 (0000ms, 39022ms total)
T1090 7847:564 JLINK_ReadReg(FPS11)  returns 0x00000000 (0000ms, 39022ms total)
T1090 7847:564 JLINK_ReadReg(FPS12)  returns 0x00000000 (0000ms, 39022ms total)
T1090 7847:564 JLINK_ReadReg(FPS13)  returns 0x00000000 (0000ms, 39022ms total)
T1090 7847:564 JLINK_ReadReg(FPS14)  returns 0x00000000 (0000ms, 39022ms total)
T1090 7847:564 JLINK_ReadReg(FPS15)  returns 0x00000000 (0000ms, 39022ms total)
T1090 7847:564 JLINK_ReadReg(FPS16)  returns 0x00000000 (0000ms, 39022ms total)
T1090 7847:564 JLINK_ReadReg(FPS17)  returns 0x00000000 (0000ms, 39022ms total)
T1090 7847:564 JLINK_ReadReg(FPS18)  returns 0x00000000 (0000ms, 39022ms total)
T1090 7847:564 JLINK_ReadReg(FPS19)  returns 0x00000000 (0000ms, 39022ms total)
T1090 7847:564 JLINK_ReadReg(FPS20)  returns 0x00000000 (0000ms, 39022ms total)
T1090 7847:564 JLINK_ReadReg(FPS21)  returns 0x00000000 (0000ms, 39022ms total)
T1090 7847:564 JLINK_ReadReg(FPS22)  returns 0x00000000 (0000ms, 39022ms total)
T1090 7847:564 JLINK_ReadReg(FPS23)  returns 0x00000000 (0000ms, 39022ms total)
T1090 7847:564 JLINK_ReadReg(FPS24)  returns 0x00000000 (0000ms, 39022ms total)
T1090 7847:564 JLINK_ReadReg(FPS25)  returns 0x00000000 (0000ms, 39022ms total)
T1090 7847:564 JLINK_ReadReg(FPS26)  returns 0x00000000 (0000ms, 39022ms total)
T1090 7847:564 JLINK_ReadReg(FPS27)  returns 0x00000000 (0000ms, 39022ms total)
T1090 7847:564 JLINK_ReadReg(FPS28)  returns 0x00000000 (0000ms, 39022ms total)
T1090 7847:564 JLINK_ReadReg(FPS29)  returns 0x00000000 (0000ms, 39022ms total)
T1090 7847:564 JLINK_ReadReg(FPS30)  returns 0x00000000 (0001ms, 39023ms total)
T1090 7847:565 JLINK_ReadReg(FPS31)  returns 0x00000000 (0000ms, 39023ms total)
T1178 7847:566 JLINK_ReadMemEx(0x00208200, 0x0004 Bytes, ..., AccessWidth = 33554432)Mis-aligned memory read: Address: 0x00208200, NumBytes: 4, Alignment: 2 (Halfword-aligned)
  ***** Mis-aligned memory read: Address: 0x00208200, NumBytes: 4, Alignment: 2 (Halfword-aligned) -- CPU_ReadMem(4 bytes @ 0x00208200) - Data: 82 00 00 00  returns 0x04 (0001ms, 39024ms total)
T1178 7847:569 JLINK_ReadMemEx(0x0020896E, 0x0208 Bytes, ..., AccessWidth = 33554432)Mis-aligned memory read: Address: 0x0020896E, NumBytes: 520, Alignment: 2 (Halfword-aligned)
  ***** Mis-aligned memory read: Address: 0x0020896E, NumBytes: 520, Alignment: 2 (Halfword-aligned) -- CPU_ReadMem(520 bytes @ 0x0020896E) - Data: 00 00 00 00 00 00 00 00 00 00 00 00 00 00 00 00 ...  returns 0x208 (0010ms, 39034ms total)
T1178 7847:584 JLINK_ReadMemEx(0x008161FC, 0x003C Bytes, ..., AccessWidth = 33554432)Mis-aligned memory read: Address: 0x008161FC, NumBytes: 60, Alignment: 2 (Halfword-aligned)
  ***** Mis-aligned memory read: Address: 0x008161FC, NumBytes: 60, Alignment: 2 (Halfword-aligned) -- CPU_ReadMem(128 bytes @ 0x008161C0) -- Updating DA cache (128 bytes @ 0x008161C0) -- Read from DA cache (60 bytes @ 0x008161FC) - Data: E0 78 00 1D A8 42 2F D1 00 20 01 46 6A 1E 04 E0 ...  returns 0x3C (0003ms, 39037ms total)
T1090 7855:845 JLINK_ReadMemEx(0x008161FC, 0x0002 Bytes, ..., AccessWidth = 33554432)Mis-aligned memory read: Address: 0x008161FC, NumBytes: 2, Alignment: 2 (Halfword-aligned)
  ***** Mis-aligned memory read: Address: 0x008161FC, NumBytes: 2, Alignment: 2 (Halfword-aligned) -- Read from DA cache (2 bytes @ 0x008161FC) - Data: E0 78  returns 0x02 (0004ms, 39041ms total)
T1090 7855:849 JLINK_Step() -- Read from DA cache (2 bytes @ 0x008161FC) -- CPU_ReadMem(4 bytes @ 0xE0001004) -- Not simulated -- CPU_WriteMem(4 bytes @ 0xE0002008) -- CPU_WriteMem(4 bytes @ 0xE000200C) -- CPU_WriteMem(4 bytes @ 0xE0002010) -- CPU_WriteMem(4 bytes @ 0xE0002014) -- CPU_WriteMem(4 bytes @ 0xE0002018)  returns 0x00 (0017ms, 39058ms total)
T1090 7855:867 JLINK_ReadReg(R15 (PC))  returns 0x008161FE (0000ms, 39059ms total)
T1090 7855:867 JLINK_ReadReg(XPSR)  returns 0x21000000 (0000ms, 39059ms total)
T1090 7855:867 JLINK_ReadMemEx(0x008161FE, 0x0002 Bytes, ..., AccessWidth = 33554432)Mis-aligned memory read: Address: 0x008161FE, NumBytes: 2, Alignment: 2 (Halfword-aligned)
  ***** Mis-aligned memory read: Address: 0x008161FE, NumBytes: 2, Alignment: 2 (Halfword-aligned) -- CPU_ReadMem(64 bytes @ 0x008161C0) -- Updating DA cache (64 bytes @ 0x008161C0) -- Read from DA cache (2 bytes @ 0x008161FE) - Data: 00 1D  returns 0x02 (0002ms, 39061ms total)
T1090 7855:869 JLINK_ReadMemEx(0x00816200, 0x003C Bytes, ..., AccessWidth = 33554432)Mis-aligned memory read: Address: 0x00816200, NumBytes: 60, Alignment: 2 (Halfword-aligned)
  ***** Mis-aligned memory read: Address: 0x00816200, NumBytes: 60, Alignment: 2 (Halfword-aligned) -- CPU_ReadMem(64 bytes @ 0x00816200) -- Updating DA cache (64 bytes @ 0x00816200) -- Read from DA cache (60 bytes @ 0x00816200) - Data: A8 42 2F D1 00 20 01 46 6A 1E 04 E0 23 5C 40 1C ...  returns 0x3C (0005ms, 39066ms total)
T1090 7855:874 JLINK_ReadMemEx(0x00816200, 0x0002 Bytes, ..., AccessWidth = 33554432)Mis-aligned memory read: Address: 0x00816200, NumBytes: 2, Alignment: 2 (Halfword-aligned)
  ***** Mis-aligned memory read: Address: 0x00816200, NumBytes: 2, Alignment: 2 (Halfword-aligned) -- Read from DA cache (2 bytes @ 0x00816200) - Data: A8 42  returns 0x02 (0001ms, 39067ms total)
T1090 7855:875 JLINK_Step() -- Read from DA cache (2 bytes @ 0x008161FE) -- CPU_ReadMem(4 bytes @ 0xE0001004) -- Simulated  returns 0x00 (0001ms, 39068ms total)
T1090 7855:876 JLINK_ReadReg(R15 (PC))  returns 0x00816200 (0000ms, 39068ms total)
T1090 7855:876 JLINK_ReadReg(XPSR)  returns 0x01000000 (0000ms, 39068ms total)
T1090 7855:876 JLINK_ReadMemEx(0x00816200, 0x003C Bytes, ..., AccessWidth = 33554432)Mis-aligned memory read: Address: 0x00816200, NumBytes: 60, Alignment: 2 (Halfword-aligned)
  ***** Mis-aligned memory read: Address: 0x00816200, NumBytes: 60, Alignment: 2 (Halfword-aligned) -- Read from DA cache (60 bytes @ 0x00816200) - Data: A8 42 2F D1 00 20 01 46 6A 1E 04 E0 23 5C 40 1C ...  returns 0x3C (0001ms, 39069ms total)
T1090 7855:877 JLINK_ReadMemEx(0x00816200, 0x0002 Bytes, ..., AccessWidth = 33554432)Mis-aligned memory read: Address: 0x00816200, NumBytes: 2, Alignment: 2 (Halfword-aligned)
  ***** Mis-aligned memory read: Address: 0x00816200, NumBytes: 2, Alignment: 2 (Halfword-aligned) -- Read from DA cache (2 bytes @ 0x00816200) - Data: A8 42  returns 0x02 (0000ms, 39069ms total)
T1090 7855:877 JLINK_ReadMemEx(0x00816202, 0x0002 Bytes, ..., AccessWidth = 33554432)Mis-aligned memory read: Address: 0x00816202, NumBytes: 2, Alignment: 2 (Halfword-aligned)
  ***** Mis-aligned memory read: Address: 0x00816202, NumBytes: 2, Alignment: 2 (Halfword-aligned) -- Read from DA cache (2 bytes @ 0x00816202) - Data: 2F D1  returns 0x02 (0000ms, 39069ms total)
T1090 7855:877 JLINK_Step() -- Read from DA cache (2 bytes @ 0x00816200) -- Simulated  returns 0x00 (0000ms, 39069ms total)
T1090 7855:877 JLINK_ReadReg(R15 (PC))  returns 0x00816202 (0000ms, 39069ms total)
T1090 7855:877 JLINK_ReadReg(XPSR)  returns 0x21000000 (0000ms, 39069ms total)
T1090 7855:877 JLINK_ReadMemEx(0x00816202, 0x0002 Bytes, ..., AccessWidth = 33554432)Mis-aligned memory read: Address: 0x00816202, NumBytes: 2, Alignment: 2 (Halfword-aligned)
  ***** Mis-aligned memory read: Address: 0x00816202, NumBytes: 2, Alignment: 2 (Halfword-aligned) -- Read from DA cache (2 bytes @ 0x00816202) - Data: 2F D1  returns 0x02 (0001ms, 39070ms total)
T1090 7855:878 JLINK_ReadMemEx(0x00816204, 0x003C Bytes, ..., AccessWidth = 33554432)Mis-aligned memory read: Address: 0x00816204, NumBytes: 60, Alignment: 2 (Halfword-aligned)
  ***** Mis-aligned memory read: Address: 0x00816204, NumBytes: 60, Alignment: 2 (Halfword-aligned) -- Read from DA cache (60 bytes @ 0x00816204) - Data: 00 20 01 46 6A 1E 04 E0 23 5C 40 1C 19 44 C9 B2 ...  returns 0x3C (0000ms, 39070ms total)
T1090 7855:878 JLINK_ReadMemEx(0x00816204, 0x0002 Bytes, ..., AccessWidth = 33554432)Mis-aligned memory read: Address: 0x00816204, NumBytes: 2, Alignment: 2 (Halfword-aligned)
  ***** Mis-aligned memory read: Address: 0x00816204, NumBytes: 2, Alignment: 2 (Halfword-aligned) -- Read from DA cache (2 bytes @ 0x00816204) - Data: 00 20  returns 0x02 (0000ms, 39070ms total)
T1090 7855:878 JLINK_Step() -- Read from DA cache (2 bytes @ 0x00816202) -- Simulated  returns 0x00 (0000ms, 39070ms total)
T1090 7855:878 JLINK_ReadReg(R15 (PC))  returns 0x00816264 (0000ms, 39070ms total)
T1090 7855:878 JLINK_ReadReg(XPSR)  returns 0x21000000 (0000ms, 39070ms total)
T1090 7855:878 JLINK_ReadReg(R0)  returns 0x000000AC (0000ms, 39070ms total)
T1090 7855:878 JLINK_ReadReg(R1)  returns 0x0082EBC4 (0000ms, 39070ms total)
T1090 7855:878 JLINK_ReadReg(R2)  returns 0x00000006 (0000ms, 39070ms total)
T1090 7855:878 JLINK_ReadReg(R3)  returns 0x00000006 (0000ms, 39070ms total)
T1090 7855:878 JLINK_ReadReg(R4)  returns 0x0028603E (0000ms, 39070ms total)
T1090 7855:878 JLINK_ReadReg(R5)  returns 0x00000015 (0000ms, 39070ms total)
T1090 7855:878 JLINK_ReadReg(R6)  returns 0x002085E0 (0001ms, 39071ms total)
T1090 7855:879 JLINK_ReadReg(R7)  returns 0x008161CD (0000ms, 39071ms total)
T1090 7855:879 JLINK_ReadReg(R8)  returns 0xA5A5A5A5 (0000ms, 39071ms total)
T1090 7855:879 JLINK_ReadReg(R9)  returns 0xA5A5A5A5 (0000ms, 39071ms total)
T1090 7855:879 JLINK_ReadReg(R10)  returns 0xA5A5A5A5 (0000ms, 39071ms total)
T1090 7855:879 JLINK_ReadReg(R11)  returns 0xA5A5A5A5 (0000ms, 39071ms total)
T1090 7855:879 JLINK_ReadReg(R12)  returns 0x00000000 (0000ms, 39071ms total)
T1090 7855:879 JLINK_ReadReg(R13 (SP))  returns 0x00211D80 (0000ms, 39071ms total)
T1090 7855:879 JLINK_ReadReg(R14)  returns 0x008161F9 (0000ms, 39071ms total)
T1090 7855:879 JLINK_ReadReg(R15 (PC))  returns 0x00816264 (0000ms, 39071ms total)
T1090 7855:879 JLINK_ReadReg(XPSR)  returns 0x21000000 (0000ms, 39071ms total)
